!Keysight Technologies,N5234A,MY55441333,A.10.60.03
!Date: Thursday, July 10, 2025 13:59:45
!Correction: S11(Full 2 Port(1,2)) 
!S21(Full 2 Port(1,2)) 
!S12(Full 2 Port(1,2)) 
!S22(Full 2 Port(1,2)) 
!S2P File: Measurements: S11, S21, S12, S22:
# Hz S  RI   R 50
10000000 1.002032 -0.0085569015 0.0043338398 0.0042221006 0.00057744049 -0.00058383768 1.0028791 -0.032737996
13743750 1.0072933 -0.0053165159 -0.0018442952 0.0025400997 -0.0016994334 0.0023889707 0.99748212 -0.043487661
17487500 1.0176979 -0.019358551 -0.0025850891 -0.00023544696 0.00057508686 0.0033034165 0.99761784 -0.055657543
21231250 1.0325991 -0.027078426 -0.00054138422 -0.00063401688 0.00026459806 0.0010158839 1.0012951 -0.066271529
24975000 1.0444372 -0.042749528 0.0017505441 -0.00080150273 -0.0010870643 0.00038722003 1.0013099 -0.077224992
28718750 1.0549667 -0.056992076 0.00071875833 0.0011944267 0.00048456911 0.00014402186 1.0022763 -0.093218468
32462500 1.0666453 -0.07790155 0.000129001 0.0011597672 -7.4363401e-005 -0.000740711 1.0018662 -0.10725372
36206250 1.0740918 -0.10068792 -0.00076325482 0.00010033965 -0.00026413274 -0.00032677819 1.003298 -0.1208286
39950000 1.0778621 -0.12596637 -2.7006308e-005 4.6554556e-005 -0.001569362 0.00094647962 1.0011739 -0.13577856
43693750 1.0786291 -0.15247081 0.0004853404 -1.3956026e-006 -0.00042671125 0.00012864317 1.0010432 -0.15008779
47437500 1.0764815 -0.17974058 0.00035217035 0.00054830912 7.5006261e-005 -0.00031929815 0.99788839 -0.16416737
51181250 1.0693834 -0.20613751 -0.0002535774 0.00012551241 0.00048616086 3.8859118e-005 0.99480021 -0.17856756
54925000 1.0570277 -0.22937723 0.00029963197 -0.00020371628 -0.00074778748 0.00060377701 0.99184322 -0.19335051
58668750 1.0438353 -0.25048673 -0.00010430226 0.00044380903 0.00030021116 0.000243809 0.98797768 -0.2069619
62412500 1.0288208 -0.26692599 0.00021915979 -6.5214495e-005 0.00045632676 0.00064336043 0.98315191 -0.22046532
66156250 1.0129745 -0.28082067 0.00015863316 -0.00037927963 9.0042537e-005 -4.2835032e-005 0.97909504 -0.23264083
69900000 0.99772727 -0.29099146 -4.6464538e-006 -0.00040658866 0.00033786066 0.00015542901 0.97424018 -0.24500227
73643750 0.98415625 -0.29723787 0.00020304151 0.00041821465 -0.00041715059 -0.00023319303 0.96929997 -0.25649816
77387500 0.97349536 -0.30133352 -0.00028108808 0.00039325168 0.00018288655 -4.1434847e-005 0.96542513 -0.26775879
81131250 0.96298105 -0.3031162 0.00026893217 0.00030890532 0.00024173628 0.00015765367 0.96011639 -0.27908751
84875000 0.95686281 -0.30453929 -0.00020681841 0.00015199324 8.5082895e-005 0.00027980501 0.95632297 -0.29003745
88618750 0.95249128 -0.30572677 -0.00011214532 6.6036926e-005 -0.00024308523 0.00030770447 0.95248246 -0.300421
92362500 0.95117944 -0.30723873 2.6938269e-005 6.4154359e-005 0.000153213 0.00027666643 0.94886059 -0.31099707
96106250 0.95203507 -0.30929357 4.1845851e-006 -8.260514e-005 -0.00011841216 0.0002235331 0.94524181 -0.32146296
99850000 0.95614022 -0.31394699 0.00010808661 0.00013934271 -1.6707714e-005 0.00023809915 0.94237572 -0.33236739
103593750 0.96005791 -0.31977123 -1.1248871e-005 -2.3722578e-005 0.00031029092 -4.5550489e-005 0.93869877 -0.34375271
107337500 0.96701384 -0.32874551 4.8905546e-005 0.00019196751 0.00017469104 0.00039744464 0.93593138 -0.35505924
111081250 0.97328931 -0.3395431 -0.00011571954 0.00018482203 0.00030015234 9.1825968e-005 0.93245083 -0.36643478
114825000 0.98023868 -0.35428664 6.6010049e-005 0.00012121635 -0.00011269771 0.00031058249 0.92870885 -0.37905008
118568750 0.98618597 -0.37222105 0.00039217222 0.00013320358 0.00010572215 0.00010302141 0.92538041 -0.39071244
122312500 0.99038267 -0.39219221 9.1881382e-005 -0.00026996277 7.3112111e-005 6.0241415e-005 0.92097908 -0.40356559
126056250 0.99154592 -0.41516846 0.00026714467 6.2278028e-005 -0.00016601062 0.00019807348 0.91646951 -0.41645148
129800000 0.98867315 -0.4394553 0.00018418467 0.00030761724 0.00023499584 0.00019855679 0.91132593 -0.42978951
133543750 0.98263311 -0.46385542 0.00023961687 0.00015244442 0.00012138977 9.0184469e-005 0.90581113 -0.44262117
137287500 0.97325355 -0.4889698 0.00017704588 5.920566e-005 -4.9257356e-005 0.00028636225 0.90016544 -0.45523092
141031250 0.95862252 -0.51065958 0.00014546727 0.00025340961 3.9491333e-005 0.00039422326 0.8932758 -0.46773392
144775000 0.94189417 -0.53047884 3.3556884e-005 0.00026475743 -3.6937727e-005 -1.3417315e-005 0.88524717 -0.48021239
148518750 0.92384422 -0.54639417 0.00017509986 0.00022430388 -5.1474573e-005 0.00018431572 0.87815642 -0.4924753
152262500 0.90514243 -0.55964679 1.0183157e-005 0.00018438054 -0.00017709497 0.00022774302 0.87003523 -0.50317079
156006250 0.8870092 -0.56918848 8.9673667e-005 0.00027614232 8.0469828e-005 0.00025890884 0.86167115 -0.51467246
159750000 0.8691569 -0.57519341 8.0292753e-005 0.00011090202 0.00017215828 -8.0863319e-005 0.8531726 -0.52535206
163493750 0.85270023 -0.57883006 0.00011965085 0.00021328131 9.9373916e-005 0.00021999213 0.84512639 -0.53478932
167237500 0.83910209 -0.58068246 0.00018172407 0.0002941993 -0.00018180595 4.9522914e-005 0.83742869 -0.54470789
170981250 0.82750088 -0.58093357 0.00019556587 0.00026738454 0.0002409325 8.847654e-005 0.82974184 -0.55379546
174725000 0.81955987 -0.58108479 6.775785e-005 0.00023316967 0.00017548501 0.00022991691 0.821971 -0.5625295
178468750 0.81363916 -0.58109671 0.000266021 0.00021370244 0.00018402799 0.00021888575 0.81457847 -0.57195795
182212500 0.8101992 -0.58231568 0.00012846137 0.00014284629 8.7286608e-005 0.00027116173 0.80766827 -0.58015561
185956250 0.80864549 -0.58474725 0.00024611899 0.0002551229 0.00036684994 0.00016463788 0.80095279 -0.58909571
189700000 0.80943495 -0.58899677 0.00019988089 0.00018952765 9.9622695e-005 4.3302247e-005 0.79433876 -0.59829408
193443750 0.810745 -0.59545827 0.00011313146 0.00014402976 0.0001163733 9.3432187e-005 0.7875101 -0.60781705
197187500 0.81345707 -0.60442895 -1.124799e-005 0.0002759583 0.00011369515 0.00011479777 0.78132915 -0.61729968
200931250 0.81525916 -0.61601424 0.00010796035 0.00042962312 0.00028304404 0.00035289853 0.77491051 -0.62669307
204675000 0.81724191 -0.63037241 0.00013231667 6.3578053e-005 0.00027346035 0.00021360403 0.7681762 -0.63662553
208418750 0.81766325 -0.64670092 0.00018485625 0.00028129874 0.00024996966 0.00023558231 0.76133209 -0.64721704
212162500 0.81586623 -0.66594791 9.7535369e-005 0.00023787073 0.00015605967 0.00022900978 0.75366777 -0.65767837
215906250 0.81100827 -0.68593925 0.00022196092 0.00024802206 0.00018686893 0.00013219561 0.74613017 -0.66849577
219650000 0.80312324 -0.70772195 0.00027275697 0.00019862549 0.00016650294 0.00025210794 0.73807758 -0.67927593
223393750 0.79136974 -0.72893971 0.00024483731 0.00034495082 0.0002160804 0.00026457341 0.72943413 -0.68930745
227137500 0.77662265 -0.74912101 0.00025042554 0.00018471692 0.00023789397 0.00028568803 0.71989363 -0.70003569
230881250 0.75900787 -0.7663542 0.00037622917 0.00031960834 9.8438875e-005 0.00033765822 0.71110535 -0.71033931
234625000 0.73872131 -0.78089857 0.00037218264 0.00025041398 0.00030576665 0.00016826687 0.70030463 -0.7202543
238368750 0.71808314 -0.79195315 0.00029514969 9.6724412e-005 0.00016877394 0.00021665246 0.68979746 -0.72903907
242112500 0.69669014 -0.80010659 0.00036812376 0.00028493191 0.00010749295 0.00025949435 0.67915022 -0.73806703
245856250 0.67700452 -0.80502909 0.00027843934 0.00018604207 0.000304888 0.00014504352 0.6686964 -0.74638259
249600000 0.65837085 -0.80715233 0.00012731605 0.00024062615 0.00021090968 0.00012660537 0.65786868 -0.75413954
253343750 0.64402366 -0.80628359 -0.00060056435 0.00054348522 0.0007130329 1.9956819e-005 0.6481486 -0.76067317
257087500 0.62602091 -0.80756319 0.00081774959 0.00052425353 -0.00022918882 0.00020802909 0.63739711 -0.76717657
260831250 0.61613178 -0.80123705 0.00013346571 -4.0343904e-005 0.00060768722 -1.9813304e-005 0.62536037 -0.77616292
264575000 0.60698581 -0.80207688 0.00050062861 -3.7775266e-005 -3.6436384e-005 8.1919252e-006 0.61669284 -0.78035188
268318750 0.60027343 -0.79960573 0.00013889477 -4.4362794e-005 1.3468433e-005 0.00029981282 0.60978627 -0.78753191
272062500 0.59554726 -0.79806095 0.00029408009 0.00050212332 0.00020456825 0.00024651547 0.59757715 -0.7942301
275806250 0.59506369 -0.7994132 0.000528234 0.00035428107 0.00045166319 0.00012629088 0.58861125 -0.80259943
279550000 0.59157211 -0.80236971 0.00045058827 -0.00018348794 3.8501203e-006 0.00034754485 0.57918209 -0.80626512
283293750 0.59354043 -0.806903 -0.00015353627 -4.8838137e-005 6.008763e-005 0.00029275709 0.57042301 -0.81451052
287037500 0.59241599 -0.81727326 0.00080776372 0.00021420853 0.00053931709 0.00085222884 0.56054288 -0.81957209
290781250 0.58945328 -0.82775241 0.00051026308 0.00041432641 0.00051508099 3.15703e-005 0.55183423 -0.82586318
294525000 0.58759904 -0.83719563 7.2537128e-005 -0.00025993653 0.00076134375 0.00061833562 0.54180783 -0.83428109
298268750 0.58514506 -0.85259509 0.00027032281 0.00042228177 -0.00013957337 0.0002187838 0.53370214 -0.84071159
302012500 0.57820058 -0.86858582 0.00027079292 0.00028606362 -0.00014731944 0.00027343424 0.52368802 -0.84995544
305756250 0.56746709 -0.88775462 0.00071965315 0.0005797295 -6.1538281e-005 -0.00013490517 0.51178902 -0.8554523
309500000 0.55551422 -0.90382415 0.00047994955 0.00018519189 9.4775045e-005 -0.00045669597 0.50062382 -0.86534101
313243750 0.54018837 -0.92104357 4.0444454e-005 -0.00036996222 0.00073102798 -0.00047437544 0.49097019 -0.86916876
316987500 0.52029932 -0.93321836 0.00067096541 0.00033842976 0.00055331102 0.001293896 0.48084694 -0.8766495
320731250 0.50010264 -0.94906944 0.00048268193 0.0010492452 0.00084177748 0.00054374046 0.46714708 -0.88457167
324475000 0.47779521 -0.95724237 0.00060115388 -2.7795189e-005 0.00071922893 0.0001721843 0.45548445 -0.88990313
328218750 0.45626211 -0.96040905 0.00037902247 0.00067912339 0.00053162628 0.00073878362 0.44097972 -0.89784116
331962500 0.43457124 -0.9646644 0.0003228882 0.00028467953 0.00077347527 0.00014814896 0.42940843 -0.90289491
335706250 0.41252026 -0.96719581 0.00064816023 0.00032604689 0.00036239374 -0.00041218134 0.41658092 -0.90810913
339450000 0.3928242 -0.96462852 0.00021460971 0.00010930347 0.00043235638 0.00028618539 0.40486646 -0.90980947
343193750 0.3754442 -0.95939732 0.0004486551 5.1534495e-005 0.00048458611 0.00012792186 0.3944228 -0.9155252
346937500 0.36250907 -0.9531824 0.00017334233 0.00032922323 -7.6616809e-005 4.7127346e-006 0.38042963 -0.92079306
350681250 0.35157776 -0.94787985 0.00079672784 0.00036098165 0.00026310381 -3.8191843e-005 0.36833331 -0.92302352
354425000 0.34082374 -0.9420259 0.00039208072 -0.00012908627 0.00066604244 7.8720492e-005 0.35631216 -0.92560196
358168750 0.3350684 -0.9390316 0.00040645318 9.6223106e-005 0.0004720375 7.0796414e-005 0.34513623 -0.92888081
361912500 0.32933322 -0.93744582 0.00042345352 0.00053829909 0.00038245294 0.00031273105 0.33423626 -0.93197513
365656250 0.32594982 -0.93985003 0.00037539887 0.0004321149 0.00055998447 9.0712201e-005 0.32288665 -0.93570948
369400000 0.32435638 -0.93984163 0.00052213622 0.00036589152 0.00081858953 0.00011175106 0.31387916 -0.93973255
373143750 0.321641 -0.94281375 0.00041764809 0.00012713188 0.00029353626 -0.00025704401 0.30248979 -0.94161886
376887500 0.31496084 -0.95071214 0.00049013854 -2.1725732e-006 0.00045007913 -0.00014662246 0.29054007 -0.94448733
380631250 0.3130036 -0.95957887 0.00033167127 -0.0001848642 0.00065505743 -6.7373636e-005 0.28300968 -0.95001227
384375000 0.30806959 -0.96963179 0.00071763271 0.00040900815 0.00057809893 1.309768e-005 0.26914033 -0.95161724
388118750 0.29962617 -0.98340034 0.00039398336 0.00034601334 0.00041471774 0.00031065557 0.26021376 -0.95583177
391862500 0.29063833 -0.9939819 0.00083229342 -0.00018049667 0.00081481162 -0.00018695308 0.2475585 -0.95886308
395606250 0.27583772 -1.008113 0.00029379045 0.00010341429 0.00072118966 -0.00023965267 0.23716335 -0.96622127
399350000 0.26241261 -1.0218668 0.00028804256 -0.00015119275 0.00029419718 3.1131418e-005 0.22598328 -0.96758944
403093750 0.24214013 -1.0318913 0.00035139677 -2.3387505e-005 -2.7572891e-005 -0.00012582309 0.21410568 -0.97332889
406837500 0.22110698 -1.0405153 0.00037092814 7.2355957e-005 0.00046118599 -0.00019396094 0.20050047 -0.97737801
410581250 0.19842678 -1.0470994 0.00052118581 -3.7595852e-005 0.0006399767 -2.502974e-005 0.18767846 -0.97913957
414325000 0.17722188 -1.0558181 0.00075617357 -3.8475035e-005 0.00087625236 0.00057424244 0.17367028 -0.98178631
418068750 0.15342659 -1.0523099 0.00059917005 1.0341965e-005 4.5937686e-005 0.00013518393 0.16228503 -0.98630595
421812500 0.12839651 -1.0496147 0.0014882806 0.0001492821 0.00084644736 0.00054642645 0.14549135 -0.98741472
425556250 0.11112557 -1.0435271 0.00080910628 -0.0005064623 0.00042333454 5.9300295e-005 0.13262463 -0.98635608
429300000 0.091459669 -1.0373508 0.00038302026 -0.00046091041 0.00087332696 -0.00018174025 0.12162197 -0.98815155
433043750 0.074693471 -1.027043 0.0010802299 -9.4978845e-005 0.00054843171 0.00010266779 0.10730346 -0.98789781
436787500 0.063574664 -1.022406 0.0011214019 0.00017964144 0.0007999916 0.00033609185 0.094764009 -0.98839265
440531250 0.05149892 -1.0120122 0.00075630122 -0.00012206443 0.00073950359 0.00046024274 0.084311634 -0.98936629
444275000 0.041893333 -1.0045928 0.00027606718 -0.0004493364 0.0010993546 4.0232302e-005 0.072928756 -0.98926276
448018750 0.037967965 -0.99524695 0.0006183635 0.00019907927 0.0005996041 0.00017394027 0.055901125 -0.98733419
451762500 0.031937819 -0.99131393 0.00041823948 0.00032942349 0.00050724193 -0.0002392296 0.046650533 -0.98552853
455506250 0.028381774 -0.9909938 0.00068307563 -1.2544469e-005 0.0007573535 0.00010024574 0.035407074 -0.98572826
459250000 0.025609393 -0.99037582 0.000689395 -9.9225836e-005 0.00081097643 -0.00015701195 0.024959533 -0.98612845
462993750 0.020261986 -0.99250352 0.00064871914 -8.5316649e-005 0.00075046933 -0.00044162312 0.013733751 -0.98453981
466737500 0.017148405 -0.99482 0.00081806019 -0.00042840937 0.00044974271 -0.00031272342 0.0029162401 -0.98587298
470481250 0.013025848 -0.99862838 0.0010161489 -0.00043015316 0.00067860825 -0.00015593834 -0.0072666509 -0.98625207
474225000 0.0044005015 -1.0052458 0.00061936345 -0.00044665617 0.00071958272 -4.4663771e-005 -0.018267417 -0.98731369
477968750 -0.0038088805 -1.0153552 0.0003035414 -0.00028282421 0.00083513238 -0.0002171183 -0.029094748 -0.98760474
481712500 -0.013738847 -1.0240135 0.0008143473 -0.00015626353 0.00068486604 -2.8251974e-005 -0.041910384 -0.98873639
485456250 -0.030626928 -1.0317763 0.00070752815 -0.0003564959 0.00049471058 -0.00010449278 -0.050731488 -0.98864013
489200000 -0.047898799 -1.0417588 0.0010280461 -0.00033823252 0.00034061872 -0.00036870339 -0.064583056 -0.98792833
492943750 -0.066067204 -1.04644 0.00084849278 -0.00035185803 0.0010664046 -0.0004624248 -0.076103918 -0.98855221
496687500 -0.086294934 -1.0516608 0.0010782247 -0.00021488433 0.0010570815 -4.9824845e-005 -0.089656807 -0.98803627
500431250 -0.11009569 -1.0506161 0.00079967018 -0.0005397973 0.00043801591 -0.00034539233 -0.10296378 -0.98811418
504175000 -0.13081898 -1.0507197 0.00045439834 -0.00050271593 0.00043310807 -0.0008808517 -0.11606748 -0.98579383
507918750 -0.1547128 -1.0444543 0.00051336782 -0.00018642283 0.00081951189 -0.00069811183 -0.12925354 -0.98411483
511662500 -0.17678453 -1.0370371 0.00067146105 -0.00029308305 0.00047161811 -0.00036046022 -0.14130418 -0.98426574
515406250 -0.19375268 -1.0275503 0.00048431015 -0.00058209733 0.00073504884 0.00034866246 -0.15407845 -0.98008829
519150000 -0.20958458 -1.0145513 0.00072666304 -0.00043762539 0.0007731386 -0.00041719631 -0.16885422 -0.97747344
522893750 -0.22353804 -1.0041155 0.00096336921 5.2160409e-005 0.00031426194 -0.00044790967 -0.18165115 -0.97363234
526637500 -0.23689203 -0.99291432 0.00074856909 -0.00019388123 0.00040612419 -0.00032070096 -0.19247505 -0.97125173
530381250 -0.24381228 -0.97964919 0.00031832402 -0.0005125255 0.00065281778 -4.845289e-005 -0.20569341 -0.96845573
534125000 -0.24985936 -0.97050583 0.00044614077 -0.00024033571 0.00054121483 -0.00036002242 -0.21634606 -0.96400332
537868750 -0.2549352 -0.9606064 0.00045339865 -0.00047550802 0.00070523721 -0.00044761359 -0.22879975 -0.95949745
541612500 -0.26028082 -0.95760959 0.00067679031 -0.00066703564 0.00021773081 -0.00014557983 -0.23845565 -0.95576465
545356250 -0.26196471 -0.95235473 0.00024205958 -0.00018682196 0.00070775003 -0.00069841219 -0.2487013 -0.95316565
549100000 -0.26511171 -0.94855398 0.00060284184 -9.4926094e-005 0.00068756292 -0.00035664314 -0.26000035 -0.9502058
552843750 -0.26665774 -0.95016009 0.00067794463 -0.00028943142 0.00050500967 -0.00053657038 -0.26767275 -0.94739735
556587500 -0.27483767 -0.95153707 0.00066862273 -0.00055083068 0.00089738303 -0.00049461506 -0.2789475 -0.9434697
560331250 -0.2810075 -0.95467728 0.00052587286 -0.00025372425 0.00061503489 -0.00034093324 -0.28906015 -0.94001389
564075000 -0.28686175 -0.95942968 0.00075668504 -0.00066181133 0.00046141606 -0.00015023514 -0.29875728 -0.93673652
567818750 -0.29926279 -0.96487939 6.4811669e-005 -0.00026964667 0.00076752051 -0.00058134185 -0.3102051 -0.93316197
571562500 -0.31186518 -0.9700411 0.00049273809 -0.00023792546 0.00070698297 -0.0003002575 -0.32191285 -0.92925841
575306250 -0.32661456 -0.97435659 0.00031484678 -0.00072047068 0.00056713109 -0.00025296162 -0.33265835 -0.92498916
579050000 -0.34330073 -0.9768486 0.00059081643 -0.00047243561 0.00068201747 -0.00047832954 -0.34415662 -0.92293489
582793750 -0.36351711 -0.97708285 0.00070324878 -0.00013651101 0.00038485925 -0.00046776782 -0.35378316 -0.92051244
586537500 -0.38341457 -0.97680962 0.00045382828 -0.00028921061 0.00016227529 -0.00026593413 -0.36547476 -0.91822547
590281250 -0.40516719 -0.97276783 0.000597601 -0.0001758556 0.00091803458 -0.00090368063 -0.37825716 -0.91408646
594025000 -0.42738274 -0.96584862 0.00022333195 -0.00019916844 0.00048480209 -0.00048063658 -0.38959032 -0.9097417
597768750 -0.44907117 -0.95671761 0.00053301523 -0.0007126304 0.00087398675 -0.00031261772 -0.40169749 -0.90511191
601512500 -0.46456724 -0.94353718 0.00076290575 -0.00052945997 0.00035393715 -0.0006157484 -0.41464302 -0.89959925
605256250 -0.48445079 -0.92956775 0.00058087142 -0.00014930783 0.0005055432 -0.00085030624 -0.42506966 -0.89284497
609000000 -0.49624339 -0.91479152 0.00053782947 -0.00014409116 0.00048795965 -0.00013620422 -0.43851486 -0.88776058
612743750 -0.5085541 -0.89882362 0.00057707232 -0.0004215925 0.00072635064 -0.00037113536 -0.44870582 -0.88197464
616487500 -0.51431304 -0.88439125 0.00075236254 -0.00059807935 0.00060192851 -0.00067647477 -0.45862997 -0.87565684
620231250 -0.51928151 -0.87077838 0.00068712886 -0.0005738227 0.0010208839 -0.00048805916 -0.46926355 -0.86909598
623975000 -0.52685577 -0.85736394 0.00048433724 -0.00064590113 0.00045692563 -0.00026826173 -0.47796673 -0.86147404
627718750 -0.5286386 -0.84564608 0.0004051369 -0.00063898985 0.00071785017 -0.00025712865 -0.4900873 -0.85759181
631462500 -0.52814329 -0.83795995 0.00055658829 -0.00025388363 0.00046004262 -0.00031070306 -0.49875897 -0.85103524
635206250 -0.52958012 -0.8321203 0.00096559169 -0.00036719866 0.00068786548 8.1776445e-005 -0.50750113 -0.84453529
638950000 -0.53273201 -0.82676995 0.00066914922 -0.0003750232 0.0010101516 -0.00049851177 -0.51729965 -0.83521807
642693750 -0.53531283 -0.82594508 0.00068378518 -0.00026381662 0.00058939721 -0.00053403096 -0.52514619 -0.83017808
646437500 -0.53862804 -0.82305729 0.00094691018 -0.00034799927 0.0010053413 -0.00049122592 -0.5325315 -0.82420164
650181250 -0.54391247 -0.82464421 0.00077462365 -0.00050105969 0.00047046805 -0.00038823992 -0.54206896 -0.81649339
653925000 -0.55186623 -0.8245762 0.00085616711 -0.00078912178 0.00054923835 -0.00050835562 -0.54958665 -0.81039578
657668750 -0.56179738 -0.82665813 0.00038534417 -0.00066998618 0.00095476751 -0.00038270044 -0.55977553 -0.80654961
