!Keysight Technologies,N5234A,MY55441333,A.10.60.03
!Date: Thursday, July 10, 2025 14:02:57
!Correction: S11(Full 2 Port(1,2)) 
!S21(Full 2 Port(1,2)) 
!S12(Full 2 Port(1,2)) 
!S22(Full 2 Port(1,2)) 
!S2P File: Measurements: S11, S21, S12, S22:
# Hz S  RI   R 50
10000000 1.0025311 -0.0092148557 0.0017955251 -0.0014165442 0.0014733629 0.0015389111 1.0010666 -0.028709667
13743750 1.008389 -0.0060415184 0.0014081178 0.00029047971 0.00035583333 -0.0039918493 0.99559134 -0.042694852
17487500 1.0161871 -0.022066586 -0.001158077 0.00093887711 -0.0017805338 -0.0010438921 0.99649388 -0.053560384
21231250 1.0298359 -0.029004939 0.0016389386 -0.0012486118 -0.0012700672 0.00029435649 0.99865437 -0.065394223
24975000 1.0424491 -0.043463204 0.001347183 -0.0008539079 0.0018593753 -0.00051586446 1.0000113 -0.077112325
28718750 1.0527139 -0.058112297 -2.2579357e-005 -0.0006756853 -0.0010539454 0.00073562091 1.0040087 -0.090784043
32462500 1.0609229 -0.077540815 -0.00095941446 -9.0247922e-006 0.00023723062 -0.00018811745 1.0025517 -0.10354707
36206250 1.0718688 -0.1020449 -0.00020840766 6.8565212e-005 -0.0001587888 0.001508718 1.0030285 -0.11883797
39950000 1.074368 -0.12842968 -0.00049202569 6.7162058e-005 -0.00018754126 -0.0009035652 1.0004108 -0.1333472
43693750 1.0756407 -0.15127034 -0.00049691112 -4.0968148e-006 -0.00018708683 0.000610043 1.0006059 -0.14579557
47437500 1.0715743 -0.17865495 3.2978292e-005 4.7860809e-005 0.0006624696 -0.00052495016 0.99818742 -0.15996547
51181250 1.0658509 -0.20375963 0.00046335696 7.5250195e-005 0.00018348981 -6.5338529e-005 0.99641079 -0.17542925
54925000 1.0539194 -0.22764544 0.00071739603 0.00025640178 0.00030315563 3.8131788e-005 0.9928537 -0.18886474
58668750 1.0412326 -0.24873176 -0.00023431811 0.00041989962 0.0001533295 -9.6347627e-005 0.9894284 -0.20415616
62412500 1.026489 -0.26503354 -3.2090433e-005 0.00042617109 -0.00023186793 -0.00025735932 0.98472315 -0.21676743
66156250 1.011457 -0.27767557 -0.00046661039 0.00014203347 -0.00045160958 -0.00018871514 0.98020852 -0.2292935
69900000 0.9972744 -0.28779653 3.5889505e-005 2.7157737e-005 -7.3831536e-005 -6.4599612e-005 0.97538906 -0.24056245
73643750 0.98306292 -0.29433298 -8.2710889e-005 -4.0711766e-006 -0.0005491075 0.00042764487 0.97075534 -0.25307298
77387500 0.97266102 -0.29906324 0.00029935138 0.00025964555 6.1992032e-005 -0.00049073185 0.96617854 -0.26376173
81131250 0.9624086 -0.30109972 8.5188723e-005 0.00018936818 0.00033381634 -8.3739746e-005 0.96136701 -0.27462012
84875000 0.95675069 -0.30313143 -0.0001610836 -5.5516957e-005 0.00031173276 -0.00027004388 0.9581005 -0.28577611
88618750 0.95268577 -0.3044847 6.5521694e-005 -0.00021985886 0.00010797581 0.00030635335 0.95415235 -0.29511893
92362500 0.95070511 -0.30676359 0.00023981305 0.00021476875 0.00011463569 0.0003884286 0.95024043 -0.30622721
96106250 0.95150888 -0.30907908 0.00018120918 5.927957e-005 8.6200009e-005 0.0002148733 0.94653141 -0.31626287
99850000 0.95460892 -0.3132605 0.00038444999 0.00016189257 1.9372095e-005 0.00011402511 0.9436413 -0.32630312
103593750 0.9586314 -0.32011399 8.6196189e-005 0.00025192069 1.5461464e-005 0.00029124177 0.94099939 -0.33706519
107337500 0.96539676 -0.32822549 7.9395635e-005 3.4441935e-005 0.00014640398 -0.00011055212 0.93783188 -0.34870189
111081250 0.97159976 -0.33976194 6.7450666e-005 -5.84753e-005 0.00023472297 0.00028505878 0.93467343 -0.3605929
114825000 0.97802746 -0.35391957 0.00014576175 0.00023927962 0.00038866786 0.0002467506 0.93151516 -0.37247056
118568750 0.9836508 -0.37137026 6.3980755e-005 0.00027789426 0.00026053825 0.00010548511 0.92825228 -0.38398722
122312500 0.98728305 -0.39080095 6.01993e-006 -6.7372683e-005 0.00014069499 0.00030567133 0.9242363 -0.39680925
126056250 0.98832709 -0.4133848 1.5703085e-005 -0.00012934508 0.00012241048 1.5737347e-005 0.91993606 -0.40937915
129800000 0.98529524 -0.43723747 -2.9767916e-005 0.00027613083 0.00025462054 0.00017800301 0.91540813 -0.42253533
133543750 0.97942638 -0.46142817 -0.00019063089 0.0003805623 4.1119783e-005 0.00022814532 0.9099831 -0.43520117
137287500 0.96996272 -0.48563242 -1.1942107e-005 -0.00019995488 0.0001713214 0.00023661475 0.90382934 -0.44856033
141031250 0.95567715 -0.50724745 8.1712933e-005 0.00011942232 0.00019355724 0.00015613364 0.89711165 -0.46066353
144775000 0.93984693 -0.52612805 0.00029741705 0.00028906509 -3.1838063e-005 0.00049377501 0.88980663 -0.47332114
148518750 0.92201906 -0.54207212 -0.00015284635 0.00035526662 0.0001055707 0.0003014401 0.8823086 -0.48524922
152262500 0.90365523 -0.55607891 0.00020785538 0.00016915078 0.00010736367 0.00015091962 0.87478244 -0.49630305
156006250 0.88595057 -0.56509 0.00013954559 7.6743774e-005 -2.1498421e-005 0.00011777628 0.86602068 -0.50732094
159750000 0.86845487 -0.5713973 4.8962382e-005 0.00029769843 0.0001101618 9.7911514e-005 0.85773993 -0.51781857
163493750 0.85231233 -0.57529086 0.00024113368 0.00015112385 0.00016935599 9.5862146e-005 0.85028577 -0.52762973
167237500 0.83943629 -0.57770807 0.00011131523 8.6767075e-005 0.00021779473 0.00023812 0.84213239 -0.53704059
170981250 0.82767665 -0.57829195 0.00031137007 0.00018593764 6.7571746e-005 4.8722002e-005 0.83472496 -0.54614979
174725000 0.81971943 -0.57858986 4.113917e-005 0.00021495573 0.00012887557 0.00017297885 0.8272832 -0.55473244
178468750 0.81377643 -0.57948089 0.00012345196 0.00019025948 0.00019037497 0.00024759996 0.8202002 -0.56423402
182212500 0.81012797 -0.58091438 5.3676729e-005 0.00026310273 6.8515212e-005 0.00023443812 0.8132658 -0.57223147
185956250 0.80874252 -0.58359289 0.00022284323 0.0001533133 5.587425e-005 0.00014025065 0.80689317 -0.58097744
189700000 0.8086831 -0.58815897 0.00010071195 0.000238227 5.7838399e-005 3.1365231e-005 0.80055791 -0.59001535
193443750 0.81007648 -0.59445536 0.00019172547 0.00013775664 0.00017954349 -6.1592393e-005 0.79440874 -0.59943843
197187500 0.81204545 -0.60368168 6.2072038e-005 8.4758969e-005 0.00014064815 0.00020204067 0.78816807 -0.60875279
200931250 0.81421268 -0.61507952 0.00028894245 0.00016185708 0.00011621186 0.00019082964 0.78171545 -0.6182912
204675000 0.81531566 -0.62895441 0.00026603002 0.00016265523 9.8477212e-005 8.3534062e-005 0.77557546 -0.62837172
208418750 0.81569827 -0.64529002 9.1322829e-005 0.00010595414 0.00013403228 0.00011903023 0.76899433 -0.63880152
212162500 0.81357306 -0.6641531 0.00024284926 0.00024701917 0.00017488845 0.00037099293 0.76168555 -0.64914274
215906250 0.80883479 -0.6838479 0.00016322195 0.00018775012 0.00021361916 0.00013640377 0.75475144 -0.66030067
219650000 0.8008889 -0.70507222 7.7423778e-005 0.00021533866 0.00014306395 0.00013979357 0.74705601 -0.67126471
223393750 0.78973579 -0.72594523 4.5285884e-005 0.00019150971 9.7457421e-005 7.2374081e-005 0.73830128 -0.68167412
227137500 0.77495956 -0.74527711 0.00010530525 5.2521627e-005 0.00013296843 0.0002326222 0.72916931 -0.691926
230881250 0.75807345 -0.76269376 0.00015941613 0.00014305614 0.00016583224 0.0001982707 0.72015601 -0.70232117
234625000 0.73845351 -0.77697617 0.00033044379 0.00023951023 6.6006927e-005 0.00013387394 0.70982784 -0.71247196
238368750 0.71846473 -0.78834301 0.00019355091 0.00016322805 0.00035614456 0.0003527966 0.69961339 -0.72163254
242112500 0.69732362 -0.79606098 0.00020660322 0.00022158216 0.0001274769 0.00028521309 0.68936527 -0.73040926
245856250 0.67788035 -0.8017534 0.00012014119 8.2143553e-005 0.00024228729 0.00036612927 0.67881387 -0.73843575
249600000 0.65954846 -0.80373293 0.00017256966 0.0002750798 0.00038483573 0.0002041535 0.6681233 -0.7462728
253343750 0.64553249 -0.80342531 0.0002084984 0.00051353348 0.00055962417 -3.6171961e-005 0.65786135 -0.75256592
257087500 0.62909865 -0.80446088 0.00016199981 -0.00050854112 -7.764664e-005 -5.1926099e-007 0.64814472 -0.76040792
260831250 0.62024397 -0.7987268 0.0008423067 0.00026564128 0.0002950363 0.001012561 0.63600183 -0.76694012
264575000 0.60888368 -0.79996717 0.00026522699 0.00041946996 0.00053417333 0.00051695941 0.62710398 -0.77327836
268318750 0.60191786 -0.79926872 -7.9115543e-006 0.00020356172 0.00034250849 -0.00059082208 0.6199224 -0.7802071
272062500 0.59801406 -0.79755527 0.00068174233 -0.00012318227 0.00035449924 0.00036642578 0.60936224 -0.78669763
275806250 0.59699708 -0.80008042 0.00038281994 -0.00014712464 0.0002269535 0.00063049933 0.6006918 -0.79400307
279550000 0.59397233 -0.80139643 0.00011857261 -9.810942e-005 -4.5153276e-005 -0.0003810128 0.59117293 -0.79756874
283293750 0.5914858 -0.80502969 3.5654281e-005 -5.9481379e-005 0.00033625879 0.00059698214 0.58214301 -0.80543399
287037500 0.59341949 -0.81619394 0.0002200126 0.00059228437 -0.0003036386 0.00010926737 0.57397616 -0.81254095
290781250 0.58842981 -0.8256709 0.00011579636 -9.0019268e-005 -0.00040442252 0.0001663545 0.5647161 -0.81816339
294525000 0.5874455 -0.8365069 0.0003307981 0.00035116766 0.00029804697 0.00031919428 0.55586189 -0.82658917
298268750 0.58398944 -0.8505758 -6.5357883e-005 0.00033341898 0.00073785183 0.00096992415 0.54979169 -0.83343679
302012500 0.57603359 -0.86713803 0.00060694624 0.00017208938 0.00059932453 -7.5883174e-005 0.53799677 -0.8422038
305756250 0.56717521 -0.88443679 0.00016179886 0.000581945 0.00085264037 0.001071564 0.52578354 -0.84964716
309500000 0.55481195 -0.89831465 0.00029794208 -0.00018536503 0.00063571573 -5.9300974e-006 0.51613533 -0.85711551
313243750 0.53961146 -0.91544789 0.00054012891 -2.9117311e-005 0.00032512349 -8.1437058e-005 0.50391906 -0.8651768
316987500 0.51989669 -0.92890102 0.0001113014 0.00055187516 0.00051944901 0.00040427851 0.49455938 -0.87021416
320731250 0.50117534 -0.94435966 0.00040273185 -0.00043973752 0.00015541994 0.00054424879 0.48246196 -0.87954891
324475000 0.47971469 -0.95230281 0.00070114655 -0.00030686308 0.00033190759 0.00033833508 0.46953946 -0.88386381
328218750 0.45793667 -0.95583421 0.00047480501 0.00021440191 0.00036331022 4.1791256e-005 0.45613378 -0.88995177
331962500 0.43705064 -0.96226978 0.00062581926 0.00055471394 0.00043758837 0.00011279937 0.44488186 -0.8969062
335706250 0.41406685 -0.9635132 0.00018345199 0.00052641053 -0.0003442209 -0.00020030532 0.43212923 -0.90293461
339450000 0.39524835 -0.96227628 0.00055792648 0.00023607783 0.00070118357 0.00012421841 0.42102036 -0.90416032
343193750 0.37726486 -0.95707411 0.00023229911 -0.00011001433 0.00037756085 0.00039589059 0.40974626 -0.9103021
346937500 0.36431769 -0.95144445 0.00036920299 0.00017791841 -0.00036370521 0.00015073401 0.39494801 -0.9150573
350681250 0.35395879 -0.94576532 0.00036927711 -8.5067433e-005 4.6128942e-005 0.00029544029 0.38339913 -0.91860402
354425000 0.34247884 -0.94136912 0.00045529852 0.00017964847 0.00085145165 0.00029377223 0.37209654 -0.92018896
358168750 0.33672088 -0.938173 0.0008480511 0.00017216068 0.00057999347 -0.00014925953 0.36052379 -0.92361087
361912500 0.33117998 -0.93660402 0.00035819632 0.00024183265 0.00078755675 0.00064011093 0.34868085 -0.92743361
365656250 0.32689336 -0.93824059 0.00011004595 -0.0004035788 0.00091049849 0.00022843106 0.34002095 -0.93099719
369400000 0.32609105 -0.93824625 0.00083474722 0.00020599036 0.0013116471 1.4007296e-006 0.33020535 -0.93460393
373143750 0.32156599 -0.94218665 0.00049039628 -0.00043529709 0.00017392918 0.00011212334 0.31986651 -0.93807018
376887500 0.31605053 -0.94981754 0.0010277182 0.00056309736 0.000317742 1.8894598e-005 0.30912063 -0.94127882
380631250 0.3124533 -0.95865172 0.00061943836 6.1151266e-005 0.00077993871 0.00071495527 0.29980564 -0.94439852
384375000 0.30912271 -0.96867639 0.00068289589 -0.00013111015 0.00033896102 -0.00070029887 0.28843838 -0.94679034
388118750 0.29934216 -0.98131341 0.00034909573 0.0004107696 0.00073007448 0.0002274843 0.27742198 -0.95279145
391862500 0.28930151 -0.99348783 0.00062363525 0.00030446611 0.0011504549 0.00039039055 0.26593518 -0.9561488
395606250 0.27685082 -1.0057315 0.00027070689 0.00017892578 0.00074187497 0.00014168967 0.25510263 -0.96293449
399350000 0.26177907 -1.018317 0.00034642706 0.00020566589 0.0008249706 -0.00022176288 0.24356741 -0.96615106
403093750 0.24387263 -1.031238 0.00042257615 -8.8491339e-005 0.00031670017 -3.9803446e-005 0.23251233 -0.97031569
406837500 0.22005026 -1.0371877 0.00084012636 -7.4093528e-005 0.00058897585 -0.000117043 0.21882285 -0.97385466
410581250 0.20052685 -1.044426 5.3467011e-005 0.00011678729 0.00024983683 -1.096397e-005 0.20662667 -0.97906303
414325000 0.17619684 -1.0508687 0.00072725664 -9.5402545e-005 0.00020645939 0.00040059892 0.1933355 -0.97949231
418068750 0.15572482 -1.0491697 0.0014859695 -0.0004610075 2.4142444e-005 -0.00018937711 0.18035895 -0.9847219
421812500 0.1317423 -1.0464797 0.00054589682 -3.3976172e-005 0.00045968592 -0.00017361503 0.16538802 -0.98574823
425556250 0.11432724 -1.0412606 0.00046927718 -0.00028702398 0.00049165759 -8.2622726e-005 0.15074974 -0.98616761
429300000 0.09441071 -1.0350406 0.00046726325 -0.00012043107 0.00044832312 -8.8557645e-005 0.14041488 -0.98818266
433043750 0.07987567 -1.0271069 0.00023810363 -0.00013401172 0.00042839375 -0.00029352549 0.12638655 -0.98716867
436787500 0.065450929 -1.0206168 0.0006442928 0.0002466414 0.0010634348 -0.0001933867 0.11405513 -0.98846859
440531250 0.055071164 -1.0111251 0.00062473078 -4.4042696e-005 0.00020135338 -0.00076178636 0.10337995 -0.988397
444275000 0.044237565 -1.003004 0.00038437769 -0.00038261098 0.000665734 3.1833904e-006 0.091411076 -0.98915565
448018750 0.040726542 -0.9953078 0.00030456347 -2.7273014e-005 0.00066564832 -8.9891764e-005 0.074394159 -0.98729992
451762500 0.033486743 -0.9909361 9.2693866e-005 6.4103449e-005 0.00086870312 -0.00015164228 0.066384047 -0.9867174
455506250 0.030790374 -0.98937404 0.00061791635 0.00010869793 0.00030329515 5.1160623e-005 0.055067215 -0.98661584
459250000 0.025923757 -0.98921925 0.00054541958 -0.00034049014 0.00042714618 -7.8862962e-005 0.044829179 -0.98725432
462993750 0.021609079 -0.99154454 0.00047005891 -0.0003332003 0.00019377668 -0.00036246417 0.033101898 -0.9872582
466737500 0.018630695 -0.99402118 0.00050488487 -1.1499703e-005 0.0003704493 0.00017385534 0.023300167 -0.98529148
470481250 0.012624763 -0.99789584 0.00068821193 -0.00010326349 0.00071528659 -0.00019125185 0.012970823 -0.98904973
474225000 0.0046965522 -1.0029786 0.00075672148 -0.0001258206 0.00056865864 -0.00037607976 0.0015357992 -0.98923075
477968750 -0.004324941 -1.0131943 0.00069166761 0.00015052588 0.0003750895 -0.00036763298 -0.0086887311 -0.98890597
481712500 -0.015490736 -1.0207651 0.00018449248 -0.00014179492 0.00052987051 -4.2029049e-005 -0.020757427 -0.99172413
485456250 -0.02961068 -1.0289323 0.00076295453 5.0573519e-005 0.00042582047 -0.00028315224 -0.031971022 -0.99056399
489200000 -0.045288119 -1.0385914 0.00036404157 -4.1523166e-005 0.00083895604 -0.00029252193 -0.045036003 -0.99141985
492943750 -0.064341582 -1.0432459 0.00041066392 -0.00024086569 0.00071744656 -0.00023538935 -0.05647235 -0.99195647
496687500 -0.085712865 -1.0473163 0.00072730397 9.8805365e-005 0.00086991844 -0.00048758631 -0.068089798 -0.9923898
500431250 -0.10753098 -1.0463394 0.00055504148 -0.00035380435 0.00080983416 -0.00020055496 -0.081910305 -0.99263531
504175000 -0.12869978 -1.0463539 0.00050781132 -0.00047213325 0.00061922806 -0.00065971055 -0.09552709 -0.9906376
507918750 -0.15202397 -1.0421313 0.00072983926 -0.00021657396 0.00056767563 -8.796942e-005 -0.10806923 -0.98891073
511662500 -0.17278035 -1.0343043 0.00080297195 -0.00038879391 0.00069850025 4.2400316e-005 -0.12097028 -0.98794371
515406250 -0.19065019 -1.0246601 0.00040255935 -0.00068295829 0.00020104303 -0.00025437065 -0.1343392 -0.98541349
519150000 -0.20491779 -1.0141283 0.00040685188 0.00021152673 0.00062238477 -0.00037367002 -0.1487982 -0.98271346
522893750 -0.21995448 -1.0014292 0.0007641961 -0.00046070124 0.00049984653 -0.00051878847 -0.1633368 -0.97959942
526637500 -0.23254949 -0.99079621 0.00055727217 -0.00043625614 0.0004574238 -0.000398426 -0.17248367 -0.97804517
530381250 -0.24116886 -0.98049587 0.00079568999 -0.00048884208 0.00051124446 -2.9764215e-005 -0.18652216 -0.97508377
534125000 -0.24824724 -0.96945089 0.00052048813 -0.0006259355 0.00050754769 -0.00034424252 -0.19650556 -0.96939451
537868750 -0.25386798 -0.96030253 0.00071540213 -0.00082504359 0.00049745338 -0.00054383185 -0.20899944 -0.96623033
541612500 -0.25867653 -0.95629841 0.00040000703 -0.00048046943 0.00022325212 -0.00037099438 -0.21882865 -0.96243352
545356250 -0.26041436 -0.95296353 0.00041737041 -0.00074777746 0.00057372509 -0.00047502876 -0.22847025 -0.95966941
549100000 -0.26487753 -0.94919676 0.00073011621 -0.00048991502 0.00048627879 -0.000591669 -0.24014975 -0.95600486
552843750 -0.26744577 -0.94941956 0.00035079438 -0.00050734222 0.0007787759 -0.00015214515 -0.24907871 -0.95386177
556587500 -0.27577686 -0.95058382 0.00044058685 -0.00046796777 0.00041248664 -0.00056975812 -0.26112932 -0.9504928
560331250 -0.28098342 -0.95320952 0.00042703029 -0.00053909677 0.00014571371 -0.00043437452 -0.26941961 -0.94713539
564075000 -0.28792331 -0.95681292 0.00049729046 -0.00070722378 0.00047985691 -9.6762677e-005 -0.28081113 -0.94528568
567818750 -0.29997471 -0.96259356 0.00068034179 -0.00051474525 0.00052901049 -0.00036597488 -0.290833 -0.94159329
571562500 -0.31324345 -0.96766013 0.00052263221 -0.00045677493 0.00030833497 -0.00043364716 -0.30191684 -0.93901217
575306250 -0.32569009 -0.97079855 0.00049830374 -0.00047842055 0.0005560969 -0.00049151777 -0.31232923 -0.93397862
579050000 -0.34329149 -0.97324258 0.00033244703 -0.00040399269 0.00016329992 -0.00059745787 -0.32355812 -0.93267018
582793750 -0.36398229 -0.97328091 0.00040219081 -0.00040120439 0.00053339993 -0.00045980359 -0.33509043 -0.92974854
586537500 -0.38249531 -0.97210807 0.00020926268 -0.00029654716 0.0003838313 -0.00063470611 -0.3470453 -0.9256838
590281250 -0.40382606 -0.96774387 0.00018361278 -0.00045445468 0.00039675125 -0.00028690189 -0.35977104 -0.92249507
594025000 -0.4256368 -0.96159869 0.00030344451 -0.00032587783 0.00088189938 -0.00069813122 -0.37195206 -0.91915202
597768750 -0.44579962 -0.9521215 0.00027790191 -0.00037818481 0.00060334365 -0.00050819712 -0.38299814 -0.91377193
601512500 -0.46314189 -0.93974662 -3.1004682e-005 -0.00065354322 7.075123e-005 -0.00080397114 -0.39509824 -0.90855563
605256250 -0.47998226 -0.92819619 0.00072246959 -0.00050132052 0.0005798004 -0.00099562632 -0.40593168 -0.90322483
609000000 -0.49129194 -0.91278762 0.0004291739 -0.00047607784 0.00049823389 -0.00038504516 -0.42019549 -0.89802682
612743750 -0.50445354 -0.89785397 0.00036288908 -0.00051885296 0.00055686611 -0.00014519435 -0.43141887 -0.89288181
616487500 -0.51266837 -0.88278097 0.00025607416 -0.00013096306 0.00029666524 -0.00033554557 -0.44070971 -0.88631177
620231250 -0.51705468 -0.86860865 0.00055940548 -0.00052601955 0.0004368503 -3.0775202e-005 -0.45202354 -0.8796047
623975000 -0.52339381 -0.8560077 0.00046927502 -0.00067555759 0.00047720739 -0.00060239539 -0.4624413 -0.87245899
627718750 -0.52662629 -0.84623069 0.00050057413 -0.00036486526 0.00031806188 -0.00086740649 -0.47252518 -0.86688727
631462500 -0.52720505 -0.83746201 0.00038738485 -0.00032819723 8.7427063e-005 -0.00048129109 -0.48145694 -0.86155164
635206250 -0.52865875 -0.83110869 0.00024463184 -0.00043931822 0.00028210061 -0.00073550019 -0.49143982 -0.8561337
638950000 -0.53112835 -0.82642955 0.00073973992 -0.00029088077 0.00045805474 -0.00032545981 -0.49936715 -0.84545994
642693750 -0.53558719 -0.82472861 0.00029373285 -0.00055006344 0.00043324899 -0.00074195926 -0.50675416 -0.84128547
646437500 -0.53743094 -0.82254332 0.00030425403 -0.000690869 0.00054893451 -0.00024223499 -0.51498646 -0.8370198
650181250 -0.54379904 -0.82408392 0.00027410086 -0.00040126595 0.0006305562 -0.00059384148 -0.52484047 -0.83030933
653925000 -0.55158764 -0.82167375 0.00051808805 -0.00016897912 0.00039687534 -0.00054877554 -0.53412634 -0.8225646
657668750 -0.56036341 -0.82369816 0.00013827905 -0.00066130888 0.00015134538 -0.0005257852 -0.54313862 -0.81865036
